! Generated by EMerge - 2-port S-parameters
! File generated: 2026-06-20 12:59 
# GHz S RI R 50
5.000000e-02  9.065559e-01  -2.259359e-01  1.323822e-05  5.109133e-05  1.322788e-05  5.109288e-05  9.035637e-01  -2.374301e-01
5.306122e-02  9.001586e-01  -2.510978e-01  2.057285e-05  7.179704e-05  2.055948e-05  7.179928e-05  8.964069e-01  -2.640254e-01
5.612245e-02  8.919896e-01  -2.797397e-01  3.488978e-05  1.094619e-04  3.487223e-05  1.094652e-04  8.872712e-01  -2.942541e-01
5.918367e-02  8.813437e-01  -3.128291e-01  6.477759e-05  1.810245e-04  6.475409e-05  1.810296e-04  8.753841e-01  -3.290800e-01
6.224490e-02  8.671076e-01  -3.517357e-01  1.316546e-04  3.236670e-04  1.316222e-04  3.236750e-04  8.595432e-01  -3.698393e-01
6.530612e-02  8.474207e-01  -3.984843e-01  2.937381e-04  6.249795e-04  2.936916e-04  6.249932e-04  8.377743e-01  -4.184566e-01
6.836735e-02  8.189206e-01  -4.562452e-01  7.284120e-04  1.310865e-03  7.283408e-04  1.310891e-03  8.065956e-01  -4.778452e-01
7.142857e-02  7.747995e-01  -5.304021e-01  2.069329e-03  3.037533e-03  2.069209e-03  3.037590e-03  7.591823e-01  -5.527464e-01
7.448980e-02  6.984942e-01  -6.312509e-01  7.194883e-03  8.036626e-03  7.194648e-03  8.036786e-03  6.796269e-01  -6.517764e-01
7.755102e-02  5.325934e-01  -7.816459e-01  3.604194e-02  2.518787e-02  3.604137e-02  2.518855e-02  5.155647e-01  -7.930627e-01
8.061224e-02  -2.161435e-01  -8.337581e-01  4.274905e-01  -8.789403e-02  4.274918e-01  -8.788670e-02  -1.670324e-01  -8.433040e-01
8.367347e-02  3.199804e-02  -4.121165e-01  -8.496255e-01  -1.640260e-01  -8.496234e-01  -1.640397e-01  6.015714e-02  -4.078147e-01
8.673469e-02  6.409701e-01  5.626750e-02  7.702409e-02  6.828819e-01  7.701295e-02  6.828840e-01  6.095187e-01  -2.032374e-01
8.979592e-02  5.601172e-01  -5.705786e-01  4.125771e-01  2.880627e-01  4.125727e-01  2.880705e-01  3.062931e-01  -7.456297e-01
9.285714e-02  1.714262e-03  -7.042727e-01  6.335031e-01  -1.550606e-01  6.335072e-01  -1.550484e-01  -3.682545e-01  -6.128143e-01
9.591837e-02  -2.276560e-01  -1.436688e-01  -2.106945e-02  -9.208827e-01  -2.104988e-02  -9.208842e-01  -2.238201e-01  1.268685e-01
9.897959e-02  -6.449024e-02  -4.269078e-01  -8.358237e-01  1.504068e-01  -8.358274e-01  1.503881e-01  -1.713604e-01  -4.029908e-01
1.020408e-01  -8.861626e-01  2.522201e-01  1.216215e-01  3.243752e-01  1.216140e-01  3.243777e-01  -8.332949e-01  3.905369e-01
1.051020e-01  -2.710241e-01  9.240314e-01  9.095114e-02  2.336522e-02  9.095039e-02  2.336711e-02  -2.509409e-01  9.303468e-01
1.081633e-01  2.066108e-01  9.300718e-01  3.039660e-02  -7.019388e-03  3.039658e-02  -7.018796e-03  1.771588e-01  9.383671e-01
1.112245e-01  4.606483e-01  8.257530e-01  1.113745e-02  -6.159132e-03  1.113745e-02  -6.158942e-03  4.190084e-01  8.504057e-01
1.142857e-01  6.036144e-01  7.223673e-01  4.664409e-03  -3.819806e-03  4.664373e-03  -3.819744e-03  5.625611e-01  7.577073e-01
1.173469e-01  6.907217e-01  6.358282e-01  2.186661e-03  -2.311675e-03  2.186610e-03  -2.311656e-03  6.535433e-01  6.769538e-01
1.204082e-01  7.474658e-01  5.653160e-01  1.120511e-03  -1.432630e-03  1.120454e-03  -1.432628e-03  7.145657e-01  6.093349e-01
1.234694e-01  7.864521e-01  5.076274e-01  6.153988e-04  -9.154333e-04  6.153410e-04  -9.154371e-04  7.574321e-01  5.529403e-01
1.265306e-01  8.143988e-01  4.598509e-01  3.565750e-04  -6.009448e-04  3.565190e-04  -6.009506e-04  7.887008e-01  5.055864e-01
1.295918e-01  8.351305e-01  4.197336e-01  2.151539e-04  -4.024356e-04  2.151005e-04  -4.024419e-04  8.122271e-01  4.654227e-01
1.326531e-01  8.509481e-01  3.855954e-01  1.336697e-04  -2.724811e-04  1.336192e-04  -2.724871e-04  8.303898e-01  4.309933e-01
1.357143e-01  8.633020e-01  3.561868e-01  8.460068e-05  -1.844540e-04  8.455302e-05  -1.844595e-04  8.447192e-01  4.011754e-01
1.387755e-01  8.731428e-01  3.305714e-01  5.394295e-05  -1.229155e-04  5.389796e-05  -1.229203e-04  8.562350e-01  3.751047e-01
1.418367e-01  8.811146e-01  3.080380e-01  3.419225e-05  -7.861985e-05  3.414969e-05  -7.862416e-05  8.656380e-01  3.521110e-01
1.448980e-01  8.876665e-01  2.880397e-01  2.114342e-05  -4.585868e-05  2.110305e-05  -4.586247e-05  8.734224e-01  3.316706e-01
1.479592e-01  8.931196e-01  2.701498e-01  1.234643e-05  -2.100638e-05  1.230802e-05  -2.100970e-05  8.799451e-01  3.133692e-01
1.510204e-01  8.977085e-01  2.540315e-01  6.324215e-06  -1.700016e-06  6.287552e-06  -1.702923e-06  8.854693e-01  2.968763e-01
1.540816e-01  9.016078e-01  2.394156e-01  2.158939e-06  1.363717e-05  2.123834e-06  1.363463e-05  8.901922e-01  2.819251e-01
1.571429e-01  9.049497e-01  2.260844e-01  -7.352951e-07  2.608023e-05  -7.690109e-07  2.607802e-05  8.942642e-01  2.682985e-01
1.602041e-01  9.078360e-01  2.138605e-01  -2.741612e-06  3.637674e-05  -2.774089e-06  3.637482e-05  8.978019e-01  2.558179e-01
1.632653e-01  9.103459e-01  2.025974e-01  -4.116035e-06  4.505599e-05  -4.147406e-06  4.505433e-05  9.008965e-01  2.443353e-01
1.663265e-01  9.125419e-01  1.921737e-01  -5.033036e-06  5.249898e-05  -5.063419e-06  5.249755e-05  9.036201e-01  2.337273e-01
1.693878e-01  9.144740e-01  1.824875e-01  -5.613649e-06  5.898421e-05  -5.643147e-06  5.898299e-05  9.060309e-01  2.238898e-01
1.724490e-01  9.161824e-01  1.734528e-01  -5.943203e-06  6.471815e-05  -5.971909e-06  6.471712e-05  9.081758e-01  2.147346e-01
1.755102e-01  9.176998e-01  1.649966e-01  -6.082757e-06  6.985587e-05  -6.110752e-06  6.985502e-05  9.100931e-01  2.061866e-01
1.785714e-01  9.190531e-01  1.570565e-01  -6.076593e-06  7.451529e-05  -6.103952e-06  7.451460e-05  9.118143e-01  1.981813e-01
1.816327e-01  9.202645e-01  1.495788e-01  -5.957233e-06  7.878707e-05  -5.984020e-06  7.878653e-05  9.133656e-01  1.906632e-01
1.846939e-01  9.213525e-01  1.425169e-01  -5.748832e-06  8.274169e-05  -5.775106e-06  8.274128e-05  9.147690e-01  1.835841e-01
1.877551e-01  9.223326e-01  1.358307e-01  -5.469524e-06  8.643446e-05  -5.495338e-06  8.643417e-05  9.160429e-01  1.769018e-01
1.908163e-01  9.232180e-01  1.294847e-01  -5.133052e-06  8.990920e-05  -5.158454e-06  8.990903e-05  9.172027e-01  1.705797e-01
1.938776e-01  9.240197e-01  1.234482e-01  -4.749929e-06  9.320094e-05  -4.774963e-06  9.320089e-05  9.182619e-01  1.645855e-01
1.969388e-01  9.247474e-01  1.176938e-01  -4.328262e-06  9.633792e-05  -4.352966e-06  9.633798e-05  9.192318e-01  1.588906e-01
2.000000e-01  9.254090e-01  1.121974e-01  -3.874349e-06  9.934306e-05  -3.898759e-06  9.934322e-05  9.201220e-01  1.534697e-01
